
T06CC 000:605 SEGGER J-Link V4.80g Log File (0000ms, 0282ms total)
T06CC 000:605 DLL Compiled: Feb 13 2014 20:50:02 (0000ms, 0282ms total)
T06CC 000:605 Logging started @ 2017-06-11 19:58 (0000ms, 0282ms total)
T06CC 000:605 JLINK_SetWarnOutHandler(...) (0000ms, 0282ms total)
T06CC 000:605 JLINK_OpenEx(...)
Firmware: J-Link ARM-OB STM32 compiled Aug 22 2012 19:52:04
Hardware: V7.00
S/N: 20090928
Feature(s): RDI,FlashDL,FlashBP,JFlash,GDBFull  returns O.K. (0263ms, 0545ms total)
T06CC 000:868 JLINK_SetErrorOutHandler(...) (0000ms, 0545ms total)
T06CC 000:868 JLINK_ExecCommand("ProjectFile = "E:\Ð¡ËÄ´úÂë\ºã v1.0\Remoter v1.3\Prj\JLinkSettings.ini"", ...)  returns 0x00 (0004ms, 0549ms total)
T06CC 000:878 JLINK_ExecCommand("Device = STM32F103C8", ...)Device "STM32F103C8" selected (64 KB flash, 20 KB RAM).  returns 0x00 (0007ms, 0556ms total)
T06CC 000:885 JLINK_ExecCommand("DisableConnectionTimeout", ...)  returns 0x01 (0000ms, 0556ms total)
T06CC 000:885 JLINK_GetHardwareVersion()  returns 0x11170 (0000ms, 0556ms total)
T06CC 000:885 JLINK_GetDLLVersion()  returns 48007 (0000ms, 0556ms total)
T06CC 000:885 JLINK_GetFirmwareString(...) (0000ms, 0556ms total)
T06CC 000:919 JLINK_GetDLLVersion()  returns 48007 (0000ms, 0556ms total)
T06CC 000:919 JLINK_GetCompileDateTime() (0000ms, 0556ms total)
T06CC 000:921 JLINK_GetFirmwareString(...) (0000ms, 0556ms total)
T06CC 000:926 JLINK_GetHardwareVersion()  returns 0x11170 (0000ms, 0556ms total)
T06CC 000:943 JLINK_TIF_Select(JLINKARM_TIF_SWD)  returns 0x00 (0001ms, 0557ms total)
T06CC 000:944 JLINK_SetSpeed(5000) (0000ms, 0557ms total)
T06CC 000:944 JLINK_GetId() >0x108 TIF>Found SWD-DP with ID 0x1BA01477 >0x0D TIF> >0x28 TIF> >0x0D TIF> >0x28 TIF> >0x0D TIF> >0x21 TIF> >0x0D TIF> >0x28 TIF> >0x0D TIF> >0x28 TIF> >0x0D TIF> >0x28 TIF> >0x0D TIF> >0x21 TIF> >0x0D TIF> >0x21 TIF> >0x0D TIF> >0x28 TIF> >0x0D TIF> >0x21 TIF> >0x0D TIF> >0x21 TIF> >0x0D TIF> >0x28 TIF> >0x0D TIF> >0x28 TIF> >0x108 TIF>Found SWD-DP with ID 0x1BA01477 >0x0D TIF> >0x21 TIF> >0x0D TIF> >0x28 TIF> >0x0D TIF> >0x28 TIF> >0x0D TIF> >0x21 TIF> >0x0D TIF> >0x28 TIF>
 >0x0D TIF> >0x21 TIF> >0x0D TIF> >0x21 TIF> >0x0D TIF> >0x21 TIF> >0x0D TIF> >0x21 TIF> >0x0D TIF> >0x28 TIF> >0x0D TIF> >0x28 TIF> >0x0D TIF> >0x21 TIF> >0x0D TIF> >0x28 TIF> >0x0D TIF> >0x28 TIF> >0x0D TIF> >0x28 TIF> >0x0D TIF> >0x21 TIF> >0x0D TIF> >0x21 TIF> >0x0D TIF> >0x28 TIF> >0x0D TIF> >0x21 TIF> >0x0D TIF> >0x21 TIF>Found Cortex-M3 r1p1, Little endian. -- CPU_WriteMem(4 bytes @ 0xE0002000) -- CPU_ReadMem(4 bytes @ 0xE000EDF0) -- CPU_WriteMem(4 bytes @ 0xE000EDF0)
 -- CPU_ReadMem(4 bytes @ 0xE0002000)FPUnit: 6 code (BP) slots and 2 literal slots -- CPU_ReadMem(4 bytes @ 0xE000EDFC) -- CPU_WriteMem(4 bytes @ 0xE000EDFC) -- CPU_ReadMem(4 bytes @ 0xE0001000) -- CPU_WriteMem(4 bytes @ 0xE0001000) -- CPU_ReadMem(4 bytes @ 0xE00FF010)TPIU fitted. -- CPU_ReadMem(4 bytes @ 0xE00FF014) -- CPU_ReadMem(4 bytes @ 0xE00FF018) >0x0D TIF> >0x21 TIF>  returns 0x1BA01477 (0045ms, 0602ms total)
T06CC 000:989 JLINK_GetDeviceFamily()  returns 3 (0000ms, 0602ms total)
T06CC 000:994 JLINK_ReadMem (0xE00FFFF0, 0x0010 Bytes, ...) -- CPU is running -- CPU_ReadMem(16 bytes @ 0xE00FFFF0) -- Data:  0D 00 00 00 10 00 00 00 05 00 00 00 B1 00 00 00  returns 0x00 (0001ms, 0603ms total)
T06CC 000:995 JLINK_ReadMem (0xE00FFFD0, 0x0020 Bytes, ...) -- CPU is running -- CPU_ReadMem(32 bytes @ 0xE00FFFD0) -- Data:  00 00 00 00 00 00 00 00 00 00 00 00 00 00 00 00 ...  returns 0x00 (0001ms, 0604ms total)
T06CC 000:996 JLINK_ReadMem (0xE00FF000, 0x0018 Bytes, ...) -- CPU is running -- CPU_ReadMem(24 bytes @ 0xE00FF000) -- Data:  03 F0 F0 FF 03 20 F0 FF 03 30 F0 FF 03 10 F0 FF ...  returns 0x00 (0000ms, 0604ms total)
T06CC 000:996 JLINK_ReadMemU32(0xE000ED00, 0x0001 Items, ...) -- CPU is running -- CPU_ReadMem(4 bytes @ 0xE000ED00) -- Data:  31 C2 1F 41  returns 0x01 (0001ms, 0605ms total)
T06CC 000:997 JLINK_SetResetType(JLINKARM_RESET_TYPE_NORMAL)  returns JLINKARM_RESET_TYPE_NORMAL (0000ms, 0605ms total)
T06CC 000:997 JLINK_Reset() -- CPU is running -- CPU_WriteMem(4 bytes @ 0xE000EDF0) -- CPU is running -- CPU_WriteMem(4 bytes @ 0xE000EDFC) >0x35 TIF> -- CPU is running -- CPU_WriteMem(4 bytes @ 0xE000ED0C) -- CPU is running -- CPU_ReadMem(4 bytes @ 0xE000EDF0) -- CPU is running -- CPU_ReadMem(4 bytes @ 0xE000EDF0) -- CPU is running -- CPU_WriteMem(4 bytes @ 0xE000EDF0) -- CPU is running -- CPU_WriteMem(4 bytes @ 0xE000EDFC) -- CPU is running -- CPU_ReadMem(4 bytes @ 0xE000EDF0)
 -- CPU_WriteMem(4 bytes @ 0xE0002000) -- CPU_ReadMem(4 bytes @ 0xE000EDFC) -- CPU_ReadMem(4 bytes @ 0xE0001000) (0020ms, 0625ms total)
T06CC 001:017 JLINK_Halt()  returns 0x00 (0000ms, 0625ms total)
T06CC 001:017 JLINK_IsHalted()  returns TRUE (0000ms, 0625ms total)
T06CC 001:017 JLINK_ReadMemU32(0xE000EDF0, 0x0001 Items, ...) -- CPU_ReadMem(4 bytes @ 0xE000EDF0) -- Data:  03 00 03 00  returns 0x01 (0001ms, 0626ms total)
T06CC 001:018 JLINK_WriteU32(0xE000EDF0, 0xA05F0003) -- CPU_WriteMem(4 bytes @ 0xE000EDF0)  returns 0x00 (0001ms, 0627ms total)
T06CC 001:019 JLINK_WriteU32(0xE000EDFC, 0x01000000) -- CPU_WriteMem(4 bytes @ 0xE000EDFC)  returns 0x00 (0001ms, 0628ms total)
T06CC 001:028 JLINK_GetHWStatus(...)  returns 0x00 (0000ms, 0628ms total)
T06CC 001:034 JLINK_GetNumBPUnits(Type = 0xFFFFFF00)  returns 0x06 (0000ms, 0628ms total)
T06CC 001:034 JLINK_GetNumBPUnits(Type = 0xF0)  returns 0x2000 (0000ms, 0628ms total)
T06CC 001:034 JLINK_GetNumWPUnits()  returns 0x04 (0000ms, 0628ms total)
T06CC 001:041 JLINK_GetSpeed()  returns 0xFA0 (0000ms, 0628ms total)
T06CC 001:045 JLINK_ReadMemU32(0xE000E004, 0x0001 Items, ...) -- CPU_ReadMem(4 bytes @ 0xE000E004) -- Data:  01 00 00 00  returns 0x01 (0001ms, 0629ms total)
T06CC 001:046 JLINK_ReadMemU32(0xE000E004, 0x0001 Items, ...) -- CPU_ReadMem(4 bytes @ 0xE000E004) -- Data:  01 00 00 00  returns 0x01 (0000ms, 0629ms total)
T06CC 001:046 JLINK_WriteMem(0xE0001000, 0x001C Bytes, ...) -- Data:  01 00 00 00 00 00 00 00 00 00 00 00 00 00 00 00 ... -- CPU_WriteMem(28 bytes @ 0xE0001000)  returns 0x1C (0003ms, 0632ms total)
T06CC 001:049 JLINK_ReadMem (0xE0001000, 0x001C Bytes, ...) -- CPU_ReadMem(28 bytes @ 0xE0001000) -- Data:  01 00 00 40 00 00 00 00 00 00 00 00 00 00 00 00 ...  returns 0x00 (0001ms, 0633ms total)
T06CC 001:056 JLINK_Halt()  returns 0x00 (0000ms, 0633ms total)
T06CC 001:056 JLINK_IsHalted()  returns TRUE (0000ms, 0633ms total)
T06CC 001:092 JLINK_WriteMem(0x20000000, 0x0164 Bytes, ...) -- Data:  00 BE 0A E0 0D 78 2D 06 68 40 08 24 40 00 00 D3 ... -- CPU_WriteMem(356 bytes @ 0x20000000)  returns 0x164 (0006ms, 0639ms total)
T06CC 001:098 JLINK_WriteReg(R0, 0x08000000)  returns 0x00 (0000ms, 0639ms total)
T06CC 001:098 JLINK_WriteReg(R1, 0x044AA200)  returns 0x00 (0000ms, 0639ms total)
T06CC 001:098 JLINK_WriteReg(R2, 0x00000001)  returns 0x00 (0000ms, 0639ms total)
T06CC 001:098 JLINK_WriteReg(R3, 0x00000000)  returns 0x00 (0000ms, 0639ms total)
T06CC 001:098 JLINK_WriteReg(R4, 0x00000000)  returns 0x00 (0000ms, 0639ms total)
T06CC 001:098 JLINK_WriteReg(R5, 0x00000000)  returns 0x00 (0000ms, 0639ms total)
T06CC 001:098 JLINK_WriteReg(R6, 0x00000000)  returns 0x00 (0000ms, 0639ms total)
T06CC 001:098 JLINK_WriteReg(R7, 0x00000000)  returns 0x00 (0000ms, 0639ms total)
T06CC 001:098 JLINK_WriteReg(R8, 0x00000000)  returns 0x00 (0000ms, 0639ms total)
T06CC 001:098 JLINK_WriteReg(R9, 0x20000160)  returns 0x00 (0000ms, 0639ms total)
T06CC 001:098 JLINK_WriteReg(R10, 0x00000000)  returns 0x00 (0000ms, 0639ms total)
T06CC 001:098 JLINK_WriteReg(R11, 0x00000000)  returns 0x00 (0000ms, 0639ms total)
T06CC 001:098 JLINK_WriteReg(R12, 0x00000000)  returns 0x00 (0000ms, 0639ms total)
T06CC 001:098 JLINK_WriteReg(R13 (SP), 0x20001000)  returns 0x00 (0000ms, 0639ms total)
T06CC 001:098 JLINK_WriteReg(R14, 0x20000001)  returns 0x00 (0000ms, 0639ms total)
T06CC 001:098 JLINK_WriteReg(R15 (PC), 0x20000038)  returns 0x00 (0000ms, 0639ms total)
T06CC 001:098 JLINK_WriteReg(XPSR, 0x01000000)  returns 0x00 (0000ms, 0639ms total)
T06CC 001:098 JLINK_WriteReg(MSP, 0x20001000)  returns 0x00 (0000ms, 0639ms total)
T06CC 001:098 JLINK_WriteReg(PSP, 0x20001000)  returns 0x00 (0000ms, 0639ms total)
T06CC 001:098 JLINK_WriteReg(CFBP, 0x00000000)  returns 0x00 (0000ms, 0639ms total)
T06CC 001:098 JLINK_SetBPEx(Addr = 0x20000000, Type = 0xFFFFFFF2) -- CPU_ReadMem(2 bytes @ 0x20000000)  returns 0x00000001 (0001ms, 0640ms total)
T06CC 001:099 JLINK_Go() -- CPU_WriteMem(2 bytes @ 0x20000000) -- CPU_WriteMem(4 bytes @ 0xE0002008) -- CPU_WriteMem(4 bytes @ 0xE000200C) -- CPU_WriteMem(4 bytes @ 0xE0002010) -- CPU_WriteMem(4 bytes @ 0xE0002014) -- CPU_WriteMem(4 bytes @ 0xE0002018) -- CPU_WriteMem(4 bytes @ 0xE000201C) -- CPU_WriteMem(4 bytes @ 0xE0001004) (0011ms, 0651ms total)
T06CC 001:110 JLINK_IsHalted() -- CPU_ReadMem(2 bytes @ 0x20000000)  returns TRUE (0005ms, 0656ms total)
T06CC 001:115 JLINK_ReadReg(R15 (PC))  returns 0x20000000 (0000ms, 0651ms total)
T06CC 001:115 JLINK_ClrBPEx(BPHandle = 0x00000001)  returns 0x00 (0000ms, 0651ms total)
T06CC 001:115 JLINK_ReadReg(R0)  returns 0x00000000 (0000ms, 0651ms total)
T06CC 001:116 JLINK_WriteReg(R0, 0x08000000)  returns 0x00 (0000ms, 0651ms total)
T06CC 001:116 JLINK_WriteReg(R1, 0x044AA200)  returns 0x00 (0000ms, 0651ms total)
T06CC 001:116 JLINK_WriteReg(R2, 0x00000001)  returns 0x00 (0000ms, 0651ms total)
T06CC 001:116 JLINK_WriteReg(R3, 0x00000000)  returns 0x00 (0000ms, 0651ms total)
T06CC 001:116 JLINK_WriteReg(R4, 0x00000000)  returns 0x00 (0000ms, 0651ms total)
T06CC 001:116 JLINK_WriteReg(R5, 0x00000000)  returns 0x00 (0000ms, 0651ms total)
T06CC 001:116 JLINK_WriteReg(R6, 0x00000000)  returns 0x00 (0000ms, 0651ms total)
T06CC 001:116 JLINK_WriteReg(R7, 0x00000000)  returns 0x00 (0000ms, 0651ms total)
T06CC 001:116 JLINK_WriteReg(R8, 0x00000000)  returns 0x00 (0000ms, 0651ms total)
T06CC 001:116 JLINK_WriteReg(R9, 0x20000160)  returns 0x00 (0000ms, 0651ms total)
T06CC 001:116 JLINK_WriteReg(R10, 0x00000000)  returns 0x00 (0000ms, 0651ms total)
T06CC 001:116 JLINK_WriteReg(R11, 0x00000000)  returns 0x00 (0000ms, 0651ms total)
T06CC 001:116 JLINK_WriteReg(R12, 0x00000000)  returns 0x00 (0000ms, 0651ms total)
T06CC 001:116 JLINK_WriteReg(R13 (SP), 0x20001000)  returns 0x00 (0000ms, 0651ms total)
T06CC 001:116 JLINK_WriteReg(R14, 0x20000001)  returns 0x00 (0000ms, 0651ms total)
T06CC 001:116 JLINK_WriteReg(R15 (PC), 0x2000007C)  returns 0x00 (0000ms, 0651ms total)
T06CC 001:116 JLINK_WriteReg(XPSR, 0x01000000)  returns 0x00 (0001ms, 0652ms total)
T06CC 001:117 JLINK_WriteReg(MSP, 0x20001000)  returns 0x00 (0000ms, 0652ms total)
T06CC 001:117 JLINK_WriteReg(PSP, 0x20001000)  returns 0x00 (0000ms, 0652ms total)
T06CC 001:117 JLINK_WriteReg(CFBP, 0x00000000)  returns 0x00 (0000ms, 0652ms total)
T06CC 001:117 JLINK_SetBPEx(Addr = 0x20000000, Type = 0xFFFFFFF2)  returns 0x00000002 (0000ms, 0652ms total)
T06CC 001:117 JLINK_Go() (0002ms, 0654ms total)
T06CC 001:119 JLINK_IsHalted()  returns FALSE (0000ms, 0654ms total)
T06CC 001:251 JLINK_IsHalted() -- CPU_ReadMem(2 bytes @ 0x20000000)  returns TRUE (0004ms, 0658ms total)
T06CC 001:255 JLINK_ReadReg(R15 (PC))  returns 0x20000000 (0000ms, 0654ms total)
T06CC 001:255 JLINK_ClrBPEx(BPHandle = 0x00000002)  returns 0x00 (0000ms, 0654ms total)
T06CC 001:255 JLINK_ReadReg(R0)  returns 0x00000000 (0000ms, 0654ms total)
T06CC 001:311 JLINK_WriteReg(R0, 0x00000001)  returns 0x00 (0000ms, 0654ms total)
T06CC 001:311 JLINK_WriteReg(R1, 0x044AA200)  returns 0x00 (0000ms, 0654ms total)
T06CC 001:311 JLINK_WriteReg(R2, 0x00000001)  returns 0x00 (0000ms, 0654ms total)
T06CC 001:311 JLINK_WriteReg(R3, 0x00000000)  returns 0x00 (0000ms, 0654ms total)
T06CC 001:311 JLINK_WriteReg(R4, 0x00000000)  returns 0x00 (0000ms, 0654ms total)
T06CC 001:311 JLINK_WriteReg(R5, 0x00000000)  returns 0x00 (0000ms, 0654ms total)
T06CC 001:311 JLINK_WriteReg(R6, 0x00000000)  returns 0x00 (0000ms, 0654ms total)
T06CC 001:311 JLINK_WriteReg(R7, 0x00000000)  returns 0x00 (0000ms, 0654ms total)
T06CC 001:311 JLINK_WriteReg(R8, 0x00000000)  returns 0x00 (0000ms, 0654ms total)
T06CC 001:311 JLINK_WriteReg(R9, 0x20000160)  returns 0x00 (0000ms, 0654ms total)
T06CC 001:311 JLINK_WriteReg(R10, 0x00000000)  returns 0x00 (0000ms, 0654ms total)
T06CC 001:311 JLINK_WriteReg(R11, 0x00000000)  returns 0x00 (0000ms, 0654ms total)
T06CC 001:311 JLINK_WriteReg(R12, 0x00000000)  returns 0x00 (0000ms, 0654ms total)
T06CC 001:311 JLINK_WriteReg(R13 (SP), 0x20001000)  returns 0x00 (0000ms, 0654ms total)
T06CC 001:311 JLINK_WriteReg(R14, 0x20000001)  returns 0x00 (0000ms, 0654ms total)
T06CC 001:311 JLINK_WriteReg(R15 (PC), 0x2000006A)  returns 0x00 (0000ms, 0654ms total)
T06CC 001:311 JLINK_WriteReg(XPSR, 0x01000000)  returns 0x00 (0000ms, 0654ms total)
T06CC 001:311 JLINK_WriteReg(MSP, 0x20001000)  returns 0x00 (0000ms, 0654ms total)
T06CC 001:311 JLINK_WriteReg(PSP, 0x20001000)  returns 0x00 (0000ms, 0654ms total)
T06CC 001:311 JLINK_WriteReg(CFBP, 0x00000000)  returns 0x00 (0000ms, 0654ms total)
T06CC 001:311 JLINK_SetBPEx(Addr = 0x20000000, Type = 0xFFFFFFF2)  returns 0x00000003 (0000ms, 0654ms total)
T06CC 001:311 JLINK_Go() (0002ms, 0656ms total)
T06CC 001:313 JLINK_IsHalted() -- CPU_ReadMem(2 bytes @ 0x20000000)  returns TRUE (0004ms, 0660ms total)
T06CC 001:317 JLINK_ReadReg(R15 (PC))  returns 0x20000000 (0000ms, 0656ms total)
T06CC 001:317 JLINK_ClrBPEx(BPHandle = 0x00000003)  returns 0x00 (0000ms, 0656ms total)
T06CC 001:317 JLINK_ReadReg(R0)  returns 0x00000000 (0000ms, 0656ms total)
T06CC 001:328 JLINK_WriteMem(0x20000000, 0x0164 Bytes, ...) -- Data:  00 BE 0A E0 0D 78 2D 06 68 40 08 24 40 00 00 D3 ... -- CPU_WriteMem(356 bytes @ 0x20000000)  returns 0x164 (0005ms, 0661ms total)
T06CC 001:333 JLINK_WriteReg(R0, 0x08000000)  returns 0x00 (0000ms, 0661ms total)
T06CC 001:333 JLINK_WriteReg(R1, 0x044AA200)  returns 0x00 (0000ms, 0661ms total)
T06CC 001:333 JLINK_WriteReg(R2, 0x00000002)  returns 0x00 (0000ms, 0661ms total)
T06CC 001:333 JLINK_WriteReg(R3, 0x00000000)  returns 0x00 (0000ms, 0661ms total)
T06CC 001:333 JLINK_WriteReg(R4, 0x00000000)  returns 0x00 (0000ms, 0661ms total)
T06CC 001:333 JLINK_WriteReg(R5, 0x00000000)  returns 0x00 (0000ms, 0661ms total)
T06CC 001:333 JLINK_WriteReg(R6, 0x00000000)  returns 0x00 (0000ms, 0661ms total)
T06CC 001:333 JLINK_WriteReg(R7, 0x00000000)  returns 0x00 (0000ms, 0661ms total)
T06CC 001:333 JLINK_WriteReg(R8, 0x00000000)  returns 0x00 (0000ms, 0661ms total)
T06CC 001:333 JLINK_WriteReg(R9, 0x20000160)  returns 0x00 (0000ms, 0661ms total)
T06CC 001:333 JLINK_WriteReg(R10, 0x00000000)  returns 0x00 (0000ms, 0661ms total)
T06CC 001:333 JLINK_WriteReg(R11, 0x00000000)  returns 0x00 (0000ms, 0661ms total)
T06CC 001:333 JLINK_WriteReg(R12, 0x00000000)  returns 0x00 (0000ms, 0661ms total)
T06CC 001:333 JLINK_WriteReg(R13 (SP), 0x20001000)  returns 0x00 (0000ms, 0661ms total)
T06CC 001:333 JLINK_WriteReg(R14, 0x20000001)  returns 0x00 (0000ms, 0661ms total)
T06CC 001:333 JLINK_WriteReg(R15 (PC), 0x20000038)  returns 0x00 (0000ms, 0661ms total)
T06CC 001:333 JLINK_WriteReg(XPSR, 0x01000000)  returns 0x00 (0000ms, 0661ms total)
T06CC 001:333 JLINK_WriteReg(MSP, 0x20001000)  returns 0x00 (0000ms, 0661ms total)
T06CC 001:333 JLINK_WriteReg(PSP, 0x20001000)  returns 0x00 (0000ms, 0661ms total)
T06CC 001:333 JLINK_WriteReg(CFBP, 0x00000000)  returns 0x00 (0000ms, 0661ms total)
T06CC 001:333 JLINK_SetBPEx(Addr = 0x20000000, Type = 0xFFFFFFF2) -- CPU_ReadMem(2 bytes @ 0x20000000)  returns 0x00000004 (0001ms, 0662ms total)
T06CC 001:334 JLINK_Go() -- CPU_WriteMem(2 bytes @ 0x20000000) (0002ms, 0664ms total)
T06CC 001:336 JLINK_IsHalted() -- CPU_ReadMem(2 bytes @ 0x20000000)  returns TRUE (0004ms, 0668ms total)
T06CC 001:340 JLINK_ReadReg(R15 (PC))  returns 0x20000000 (0000ms, 0664ms total)
T06CC 001:340 JLINK_ClrBPEx(BPHandle = 0x00000004)  returns 0x00 (0000ms, 0664ms total)
T06CC 001:340 JLINK_ReadReg(R0)  returns 0x00000000 (0000ms, 0664ms total)
T06CC 001:341 JLINK_WriteMem(0x20000164, 0x0400 Bytes, ...) -- Data:  28 09 00 20 89 01 00 08 3D 02 00 08 3F 02 00 08 ... -- CPU_WriteMem(1024 bytes @ 0x20000164)  returns 0x400 (0012ms, 0676ms total)
T06CC 001:353 JLINK_WriteReg(R0, 0x08000000)  returns 0x00 (0000ms, 0676ms total)
T06CC 001:353 JLINK_WriteReg(R1, 0x00000400)  returns 0x00 (0000ms, 0676ms total)
T06CC 001:353 JLINK_WriteReg(R2, 0x20000164)  returns 0x00 (0000ms, 0676ms total)
T06CC 001:353 JLINK_WriteReg(R3, 0x00000000)  returns 0x00 (0000ms, 0676ms total)
T06CC 001:353 JLINK_WriteReg(R4, 0x00000000)  returns 0x00 (0000ms, 0676ms total)
T06CC 001:353 JLINK_WriteReg(R5, 0x00000000)  returns 0x00 (0000ms, 0676ms total)
T06CC 001:353 JLINK_WriteReg(R6, 0x00000000)  returns 0x00 (0000ms, 0676ms total)
T06CC 001:353 JLINK_WriteReg(R7, 0x00000000)  returns 0x00 (0000ms, 0676ms total)
T06CC 001:353 JLINK_WriteReg(R8, 0x00000000)  returns 0x00 (0000ms, 0676ms total)
T06CC 001:353 JLINK_WriteReg(R9, 0x20000160)  returns 0x00 (0000ms, 0676ms total)
T06CC 001:353 JLINK_WriteReg(R10, 0x00000000)  returns 0x00 (0000ms, 0676ms total)
T06CC 001:353 JLINK_WriteReg(R11, 0x00000000)  returns 0x00 (0000ms, 0676ms total)
T06CC 001:353 JLINK_WriteReg(R12, 0x00000000)  returns 0x00 (0000ms, 0676ms total)
T06CC 001:353 JLINK_WriteReg(R13 (SP), 0x20001000)  returns 0x00 (0000ms, 0676ms total)
T06CC 001:353 JLINK_WriteReg(R14, 0x20000001)  returns 0x00 (0000ms, 0676ms total)
T06CC 001:353 JLINK_WriteReg(R15 (PC), 0x200000F4)  returns 0x00 (0000ms, 0676ms total)
T06CC 001:353 JLINK_WriteReg(XPSR, 0x01000000)  returns 0x00 (0000ms, 0676ms total)
T06CC 001:353 JLINK_WriteReg(MSP, 0x20001000)  returns 0x00 (0000ms, 0676ms total)
T06CC 001:353 JLINK_WriteReg(PSP, 0x20001000)  returns 0x00 (0000ms, 0676ms total)
T06CC 001:353 JLINK_WriteReg(CFBP, 0x00000000)  returns 0x00 (0000ms, 0676ms total)
T06CC 001:353 JLINK_SetBPEx(Addr = 0x20000000, Type = 0xFFFFFFF2)  returns 0x00000005 (0000ms, 0676ms total)
T06CC 001:353 JLINK_Go() (0003ms, 0679ms total)
T06CC 001:356 JLINK_IsHalted()  returns FALSE (0000ms, 0679ms total)
T06CC 001:416 JLINK_IsHalted() -- CPU_ReadMem(2 bytes @ 0x20000000)  returns TRUE (0004ms, 0683ms total)
T06CC 001:420 JLINK_ReadReg(R15 (PC))  returns 0x20000000 (0000ms, 0679ms total)
T06CC 001:420 JLINK_ClrBPEx(BPHandle = 0x00000005)  returns 0x00 (0000ms, 0679ms total)
T06CC 001:420 JLINK_ReadReg(R0)  returns 0x00000000 (0000ms, 0679ms total)
T06CC 001:420 JLINK_WriteMem(0x20000164, 0x0400 Bytes, ...) -- Data:  20 B1 0C 48 00 68 40 1E 0A 49 08 60 70 47 00 00 ... -- CPU_WriteMem(1024 bytes @ 0x20000164)  returns 0x400 (0013ms, 0692ms total)
T06CC 001:433 JLINK_WriteReg(R0, 0x08000400)  returns 0x00 (0000ms, 0692ms total)
T06CC 001:433 JLINK_WriteReg(R1, 0x00000400)  returns 0x00 (0000ms, 0692ms total)
T06CC 001:433 JLINK_WriteReg(R2, 0x20000164)  returns 0x00 (0000ms, 0692ms total)
T06CC 001:433 JLINK_WriteReg(R3, 0x00000000)  returns 0x00 (0000ms, 0692ms total)
T06CC 001:433 JLINK_WriteReg(R4, 0x00000000)  returns 0x00 (0000ms, 0692ms total)
T06CC 001:433 JLINK_WriteReg(R5, 0x00000000)  returns 0x00 (0000ms, 0692ms total)
T06CC 001:433 JLINK_WriteReg(R6, 0x00000000)  returns 0x00 (0000ms, 0692ms total)
T06CC 001:433 JLINK_WriteReg(R7, 0x00000000)  returns 0x00 (0000ms, 0692ms total)
T06CC 001:433 JLINK_WriteReg(R8, 0x00000000)  returns 0x00 (0000ms, 0692ms total)
T06CC 001:433 JLINK_WriteReg(R9, 0x20000160)  returns 0x00 (0000ms, 0692ms total)
T06CC 001:433 JLINK_WriteReg(R10, 0x00000000)  returns 0x00 (0000ms, 0692ms total)
T06CC 001:433 JLINK_WriteReg(R11, 0x00000000)  returns 0x00 (0000ms, 0692ms total)
T06CC 001:433 JLINK_WriteReg(R12, 0x00000000)  returns 0x00 (0000ms, 0692ms total)
T06CC 001:433 JLINK_WriteReg(R13 (SP), 0x20001000)  returns 0x00 (0000ms, 0692ms total)
T06CC 001:433 JLINK_WriteReg(R14, 0x20000001)  returns 0x00 (0000ms, 0692ms total)
T06CC 001:433 JLINK_WriteReg(R15 (PC), 0x200000F4)  returns 0x00 (0000ms, 0692ms total)
T06CC 001:433 JLINK_WriteReg(XPSR, 0x01000000)  returns 0x00 (0000ms, 0692ms total)
T06CC 001:433 JLINK_WriteReg(MSP, 0x20001000)  returns 0x00 (0000ms, 0692ms total)
T06CC 001:433 JLINK_WriteReg(PSP, 0x20001000)  returns 0x00 (0000ms, 0692ms total)
T06CC 001:433 JLINK_WriteReg(CFBP, 0x00000000)  returns 0x00 (0000ms, 0692ms total)
T06CC 001:433 JLINK_SetBPEx(Addr = 0x20000000, Type = 0xFFFFFFF2)  returns 0x00000006 (0000ms, 0692ms total)
T06CC 001:433 JLINK_Go() (0003ms, 0695ms total)
T06CC 001:436 JLINK_IsHalted()  returns FALSE (0001ms, 0696ms total)
T06CC 001:459 JLINK_IsHalted()  returns FALSE (0001ms, 0696ms total)
T06CC 001:462 JLINK_IsHalted()  returns FALSE (0001ms, 0696ms total)
T06CC 001:464 JLINK_IsHalted()  returns FALSE (0001ms, 0696ms total)
T06CC 001:470 JLINK_IsHalted() -- CPU_ReadMem(2 bytes @ 0x20000000)  returns TRUE (0004ms, 0699ms total)
T06CC 001:474 JLINK_ReadReg(R15 (PC))  returns 0x20000000 (0000ms, 0695ms total)
T06CC 001:474 JLINK_ClrBPEx(BPHandle = 0x00000006)  returns 0x00 (0000ms, 0695ms total)
T06CC 001:474 JLINK_ReadReg(R0)  returns 0x00000000 (0000ms, 0695ms total)
T06CC 001:476 JLINK_WriteMem(0x20000164, 0x0400 Bytes, ...) -- Data:  0C 00 00 20 AD F8 0E 00 04 A9 15 48 03 F0 41 FC ... -- CPU_WriteMem(1024 bytes @ 0x20000164)  returns 0x400 (0012ms, 0707ms total)
T06CC 001:488 JLINK_WriteReg(R0, 0x08000800)  returns 0x00 (0000ms, 0707ms total)
T06CC 001:488 JLINK_WriteReg(R1, 0x00000400)  returns 0x00 (0000ms, 0707ms total)
T06CC 001:488 JLINK_WriteReg(R2, 0x20000164)  returns 0x00 (0000ms, 0707ms total)
T06CC 001:488 JLINK_WriteReg(R3, 0x00000000)  returns 0x00 (0000ms, 0707ms total)
T06CC 001:488 JLINK_WriteReg(R4, 0x00000000)  returns 0x00 (0000ms, 0707ms total)
T06CC 001:488 JLINK_WriteReg(R5, 0x00000000)  returns 0x00 (0000ms, 0707ms total)
T06CC 001:488 JLINK_WriteReg(R6, 0x00000000)  returns 0x00 (0000ms, 0707ms total)
T06CC 001:488 JLINK_WriteReg(R7, 0x00000000)  returns 0x00 (0000ms, 0707ms total)
T06CC 001:488 JLINK_WriteReg(R8, 0x00000000)  returns 0x00 (0000ms, 0707ms total)
T06CC 001:488 JLINK_WriteReg(R9, 0x20000160)  returns 0x00 (0000ms, 0707ms total)
T06CC 001:488 JLINK_WriteReg(R10, 0x00000000)  returns 0x00 (0000ms, 0707ms total)
T06CC 001:488 JLINK_WriteReg(R11, 0x00000000)  returns 0x00 (0000ms, 0707ms total)
T06CC 001:488 JLINK_WriteReg(R12, 0x00000000)  returns 0x00 (0000ms, 0707ms total)
T06CC 001:488 JLINK_WriteReg(R13 (SP), 0x20001000)  returns 0x00 (0000ms, 0707ms total)
T06CC 001:488 JLINK_WriteReg(R14, 0x20000001)  returns 0x00 (0000ms, 0707ms total)
T06CC 001:488 JLINK_WriteReg(R15 (PC), 0x200000F4)  returns 0x00 (0000ms, 0707ms total)
T06CC 001:488 JLINK_WriteReg(XPSR, 0x01000000)  returns 0x00 (0000ms, 0707ms total)
T06CC 001:488 JLINK_WriteReg(MSP, 0x20001000)  returns 0x00 (0000ms, 0707ms total)
T06CC 001:488 JLINK_WriteReg(PSP, 0x20001000)  returns 0x00 (0000ms, 0707ms total)
T06CC 001:488 JLINK_WriteReg(CFBP, 0x00000000)  returns 0x00 (0000ms, 0707ms total)
T06CC 001:488 JLINK_SetBPEx(Addr = 0x20000000, Type = 0xFFFFFFF2)  returns 0x00000007 (0000ms, 0707ms total)
T06CC 001:488 JLINK_Go() (0002ms, 0709ms total)
T06CC 001:490 JLINK_IsHalted()  returns FALSE (0001ms, 0710ms total)
T06CC 001:507 JLINK_IsHalted()  returns FALSE (0000ms, 0709ms total)
T06CC 001:510 JLINK_IsHalted()  returns FALSE (0001ms, 0710ms total)
T06CC 001:512 JLINK_IsHalted()  returns FALSE (0001ms, 0710ms total)
T06CC 001:515 JLINK_IsHalted()  returns FALSE (0001ms, 0710ms total)
T06CC 001:522 JLINK_IsHalted() -- CPU_ReadMem(2 bytes @ 0x20000000)  returns TRUE (0004ms, 0713ms total)
T06CC 001:526 JLINK_ReadReg(R15 (PC))  returns 0x20000000 (0000ms, 0709ms total)
T06CC 001:526 JLINK_ClrBPEx(BPHandle = 0x00000007)  returns 0x00 (0000ms, 0709ms total)
T06CC 001:526 JLINK_ReadReg(R0)  returns 0x00000000 (0000ms, 0709ms total)
T06CC 001:527 JLINK_WriteMem(0x20000164, 0x0400 Bytes, ...) -- Data:  0A 54 45 48 42 7A 20 46 61 1C CC B2 3B 49 0A 54 ... -- CPU_WriteMem(1024 bytes @ 0x20000164)  returns 0x400 (0013ms, 0722ms total)
T06CC 001:540 JLINK_WriteReg(R0, 0x08000C00)  returns 0x00 (0000ms, 0722ms total)
T06CC 001:540 JLINK_WriteReg(R1, 0x00000400)  returns 0x00 (0000ms, 0722ms total)
T06CC 001:540 JLINK_WriteReg(R2, 0x20000164)  returns 0x00 (0000ms, 0722ms total)
T06CC 001:540 JLINK_WriteReg(R3, 0x00000000)  returns 0x00 (0000ms, 0722ms total)
T06CC 001:540 JLINK_WriteReg(R4, 0x00000000)  returns 0x00 (0000ms, 0722ms total)
T06CC 001:540 JLINK_WriteReg(R5, 0x00000000)  returns 0x00 (0000ms, 0722ms total)
T06CC 001:540 JLINK_WriteReg(R6, 0x00000000)  returns 0x00 (0000ms, 0722ms total)
T06CC 001:540 JLINK_WriteReg(R7, 0x00000000)  returns 0x00 (0000ms, 0722ms total)
T06CC 001:540 JLINK_WriteReg(R8, 0x00000000)  returns 0x00 (0000ms, 0722ms total)
T06CC 001:540 JLINK_WriteReg(R9, 0x20000160)  returns 0x00 (0000ms, 0722ms total)
T06CC 001:540 JLINK_WriteReg(R10, 0x00000000)  returns 0x00 (0000ms, 0722ms total)
T06CC 001:540 JLINK_WriteReg(R11, 0x00000000)  returns 0x00 (0000ms, 0722ms total)
T06CC 001:540 JLINK_WriteReg(R12, 0x00000000)  returns 0x00 (0000ms, 0722ms total)
T06CC 001:540 JLINK_WriteReg(R13 (SP), 0x20001000)  returns 0x00 (0000ms, 0722ms total)
T06CC 001:540 JLINK_WriteReg(R14, 0x20000001)  returns 0x00 (0000ms, 0722ms total)
T06CC 001:540 JLINK_WriteReg(R15 (PC), 0x200000F4)  returns 0x00 (0000ms, 0722ms total)
T06CC 001:540 JLINK_WriteReg(XPSR, 0x01000000)  returns 0x00 (0000ms, 0722ms total)
T06CC 001:540 JLINK_WriteReg(MSP, 0x20001000)  returns 0x00 (0000ms, 0722ms total)
T06CC 001:540 JLINK_WriteReg(PSP, 0x20001000)  returns 0x00 (0000ms, 0722ms total)
T06CC 001:540 JLINK_WriteReg(CFBP, 0x00000000)  returns 0x00 (0000ms, 0722ms total)
T06CC 001:540 JLINK_SetBPEx(Addr = 0x20000000, Type = 0xFFFFFFF2)  returns 0x00000008 (0000ms, 0722ms total)
T06CC 001:540 JLINK_Go() (0003ms, 0725ms total)
T06CC 001:543 JLINK_IsHalted()  returns FALSE (0000ms, 0725ms total)
T06CC 001:583 JLINK_IsHalted() -- CPU_ReadMem(2 bytes @ 0x20000000)  returns TRUE (0004ms, 0729ms total)
T06CC 001:587 JLINK_ReadReg(R15 (PC))  returns 0x20000000 (0000ms, 0725ms total)
T06CC 001:587 JLINK_ClrBPEx(BPHandle = 0x00000008)  returns 0x00 (0000ms, 0725ms total)
T06CC 001:587 JLINK_ReadReg(R0)  returns 0x00000000 (0000ms, 0725ms total)
T06CC 001:587 JLINK_WriteMem(0x20000164, 0x0400 Bytes, ...) -- Data:  01 F0 0C FF 01 21 88 03 01 F0 15 FF 4F F4 60 40 ... -- CPU_WriteMem(1024 bytes @ 0x20000164)  returns 0x400 (0013ms, 0738ms total)
T06CC 001:600 JLINK_WriteReg(R0, 0x08001000)  returns 0x00 (0000ms, 0738ms total)
T06CC 001:600 JLINK_WriteReg(R1, 0x00000400)  returns 0x00 (0000ms, 0738ms total)
T06CC 001:600 JLINK_WriteReg(R2, 0x20000164)  returns 0x00 (0000ms, 0738ms total)
T06CC 001:600 JLINK_WriteReg(R3, 0x00000000)  returns 0x00 (0000ms, 0738ms total)
T06CC 001:600 JLINK_WriteReg(R4, 0x00000000)  returns 0x00 (0000ms, 0738ms total)
T06CC 001:600 JLINK_WriteReg(R5, 0x00000000)  returns 0x00 (0000ms, 0738ms total)
T06CC 001:600 JLINK_WriteReg(R6, 0x00000000)  returns 0x00 (0000ms, 0738ms total)
T06CC 001:600 JLINK_WriteReg(R7, 0x00000000)  returns 0x00 (0000ms, 0738ms total)
T06CC 001:600 JLINK_WriteReg(R8, 0x00000000)  returns 0x00 (0000ms, 0738ms total)
T06CC 001:600 JLINK_WriteReg(R9, 0x20000160)  returns 0x00 (0000ms, 0738ms total)
T06CC 001:600 JLINK_WriteReg(R10, 0x00000000)  returns 0x00 (0000ms, 0738ms total)
T06CC 001:600 JLINK_WriteReg(R11, 0x00000000)  returns 0x00 (0000ms, 0738ms total)
T06CC 001:600 JLINK_WriteReg(R12, 0x00000000)  returns 0x00 (0000ms, 0738ms total)
T06CC 001:600 JLINK_WriteReg(R13 (SP), 0x20001000)  returns 0x00 (0000ms, 0738ms total)
T06CC 001:600 JLINK_WriteReg(R14, 0x20000001)  returns 0x00 (0000ms, 0738ms total)
T06CC 001:600 JLINK_WriteReg(R15 (PC), 0x200000F4)  returns 0x00 (0000ms, 0738ms total)
T06CC 001:600 JLINK_WriteReg(XPSR, 0x01000000)  returns 0x00 (0000ms, 0738ms total)
T06CC 001:600 JLINK_WriteReg(MSP, 0x20001000)  returns 0x00 (0000ms, 0738ms total)
T06CC 001:600 JLINK_WriteReg(PSP, 0x20001000)  returns 0x00 (0000ms, 0738ms total)
T06CC 001:600 JLINK_WriteReg(CFBP, 0x00000000)  returns 0x00 (0000ms, 0738ms total)
T06CC 001:600 JLINK_SetBPEx(Addr = 0x20000000, Type = 0xFFFFFFF2)  returns 0x00000009 (0000ms, 0738ms total)
T06CC 001:600 JLINK_Go() (0003ms, 0741ms total)
T06CC 001:603 JLINK_IsHalted()  returns FALSE (0001ms, 0742ms total)
T06CC 001:616 JLINK_IsHalted()  returns FALSE (0001ms, 0742ms total)
T06CC 001:618 JLINK_IsHalted()  returns FALSE (0001ms, 0742ms total)
T06CC 001:620 JLINK_IsHalted()  returns FALSE (0000ms, 0741ms total)
T06CC 001:628 JLINK_IsHalted()  returns FALSE (0001ms, 0742ms total)
T06CC 001:631 JLINK_IsHalted()  returns FALSE (0000ms, 0741ms total)
T06CC 001:633 JLINK_IsHalted()  returns FALSE (0000ms, 0741ms total)
T06CC 001:635 JLINK_IsHalted() -- CPU_ReadMem(2 bytes @ 0x20000000)  returns TRUE (0004ms, 0745ms total)
T06CC 001:639 JLINK_ReadReg(R15 (PC))  returns 0x20000000 (0000ms, 0741ms total)
T06CC 001:639 JLINK_ClrBPEx(BPHandle = 0x00000009)  returns 0x00 (0000ms, 0741ms total)
T06CC 001:639 JLINK_ReadReg(R0)  returns 0x00000000 (0000ms, 0741ms total)
T06CC 001:639 JLINK_WriteMem(0x20000164, 0x0400 Bytes, ...) -- Data:  00 88 40 F2 6C 71 88 42 2E DD 40 48 00 88 40 F6 ... -- CPU_WriteMem(1024 bytes @ 0x20000164)  returns 0x400 (0012ms, 0753ms total)
T06CC 001:651 JLINK_WriteReg(R0, 0x08001400)  returns 0x00 (0000ms, 0753ms total)
T06CC 001:651 JLINK_WriteReg(R1, 0x00000400)  returns 0x00 (0000ms, 0753ms total)
T06CC 001:651 JLINK_WriteReg(R2, 0x20000164)  returns 0x00 (0001ms, 0754ms total)
T06CC 001:652 JLINK_WriteReg(R3, 0x00000000)  returns 0x00 (0000ms, 0754ms total)
T06CC 001:652 JLINK_WriteReg(R4, 0x00000000)  returns 0x00 (0000ms, 0754ms total)
T06CC 001:652 JLINK_WriteReg(R5, 0x00000000)  returns 0x00 (0000ms, 0754ms total)
T06CC 001:652 JLINK_WriteReg(R6, 0x00000000)  returns 0x00 (0000ms, 0754ms total)
T06CC 001:652 JLINK_WriteReg(R7, 0x00000000)  returns 0x00 (0000ms, 0754ms total)
T06CC 001:652 JLINK_WriteReg(R8, 0x00000000)  returns 0x00 (0000ms, 0754ms total)
T06CC 001:652 JLINK_WriteReg(R9, 0x20000160)  returns 0x00 (0000ms, 0754ms total)
T06CC 001:652 JLINK_WriteReg(R10, 0x00000000)  returns 0x00 (0000ms, 0754ms total)
T06CC 001:652 JLINK_WriteReg(R11, 0x00000000)  returns 0x00 (0000ms, 0754ms total)
T06CC 001:652 JLINK_WriteReg(R12, 0x00000000)  returns 0x00 (0000ms, 0754ms total)
T06CC 001:652 JLINK_WriteReg(R13 (SP), 0x20001000)  returns 0x00 (0000ms, 0754ms total)
T06CC 001:652 JLINK_WriteReg(R14, 0x20000001)  returns 0x00 (0000ms, 0754ms total)
T06CC 001:652 JLINK_WriteReg(R15 (PC), 0x200000F4)  returns 0x00 (0000ms, 0754ms total)
T06CC 001:652 JLINK_WriteReg(XPSR, 0x01000000)  returns 0x00 (0000ms, 0754ms total)
T06CC 001:652 JLINK_WriteReg(MSP, 0x20001000)  returns 0x00 (0000ms, 0754ms total)
T06CC 001:652 JLINK_WriteReg(PSP, 0x20001000)  returns 0x00 (0000ms, 0754ms total)
T06CC 001:652 JLINK_WriteReg(CFBP, 0x00000000)  returns 0x00 (0000ms, 0754ms total)
T06CC 001:652 JLINK_SetBPEx(Addr = 0x20000000, Type = 0xFFFFFFF2)  returns 0x0000000A (0000ms, 0754ms total)
T06CC 001:652 JLINK_Go() (0002ms, 0756ms total)
T06CC 001:654 JLINK_IsHalted()  returns FALSE (0000ms, 0756ms total)
T06CC 001:678 JLINK_IsHalted()  returns FALSE (0000ms, 0756ms total)
T06CC 001:680 JLINK_IsHalted()  returns FALSE (0001ms, 0757ms total)
T06CC 001:682 JLINK_IsHalted()  returns FALSE (0001ms, 0757ms total)
T06CC 001:684 JLINK_IsHalted()  returns FALSE (0000ms, 0756ms total)
T06CC 001:692 JLINK_IsHalted() -- CPU_ReadMem(2 bytes @ 0x20000000)  returns TRUE (0004ms, 0760ms total)
T06CC 001:696 JLINK_ReadReg(R15 (PC))  returns 0x20000000 (0000ms, 0756ms total)
T06CC 001:696 JLINK_ClrBPEx(BPHandle = 0x0000000A)  returns 0x00 (0000ms, 0756ms total)
T06CC 001:696 JLINK_ReadReg(R0)  returns 0x00000000 (0000ms, 0756ms total)
T06CC 001:697 JLINK_WriteMem(0x20000164, 0x0400 Bytes, ...) -- Data:  09 88 88 42 04 DC FF F7 E7 FF 00 20 02 49 08 80 ... -- CPU_WriteMem(1024 bytes @ 0x20000164)  returns 0x400 (0013ms, 0769ms total)
T06CC 001:710 JLINK_WriteReg(R0, 0x08001800)  returns 0x00 (0000ms, 0769ms total)
T06CC 001:710 JLINK_WriteReg(R1, 0x00000400)  returns 0x00 (0000ms, 0769ms total)
T06CC 001:710 JLINK_WriteReg(R2, 0x20000164)  returns 0x00 (0000ms, 0769ms total)
T06CC 001:710 JLINK_WriteReg(R3, 0x00000000)  returns 0x00 (0000ms, 0769ms total)
T06CC 001:710 JLINK_WriteReg(R4, 0x00000000)  returns 0x00 (0000ms, 0769ms total)
T06CC 001:710 JLINK_WriteReg(R5, 0x00000000)  returns 0x00 (0000ms, 0769ms total)
T06CC 001:710 JLINK_WriteReg(R6, 0x00000000)  returns 0x00 (0000ms, 0769ms total)
T06CC 001:710 JLINK_WriteReg(R7, 0x00000000)  returns 0x00 (0000ms, 0769ms total)
T06CC 001:710 JLINK_WriteReg(R8, 0x00000000)  returns 0x00 (0000ms, 0769ms total)
T06CC 001:710 JLINK_WriteReg(R9, 0x20000160)  returns 0x00 (0000ms, 0769ms total)
T06CC 001:710 JLINK_WriteReg(R10, 0x00000000)  returns 0x00 (0000ms, 0769ms total)
T06CC 001:710 JLINK_WriteReg(R11, 0x00000000)  returns 0x00 (0000ms, 0769ms total)
T06CC 001:710 JLINK_WriteReg(R12, 0x00000000)  returns 0x00 (0000ms, 0769ms total)
T06CC 001:710 JLINK_WriteReg(R13 (SP), 0x20001000)  returns 0x00 (0000ms, 0769ms total)
T06CC 001:710 JLINK_WriteReg(R14, 0x20000001)  returns 0x00 (0000ms, 0769ms total)
T06CC 001:710 JLINK_WriteReg(R15 (PC), 0x200000F4)  returns 0x00 (0000ms, 0769ms total)
T06CC 001:710 JLINK_WriteReg(XPSR, 0x01000000)  returns 0x00 (0000ms, 0769ms total)
T06CC 001:710 JLINK_WriteReg(MSP, 0x20001000)  returns 0x00 (0000ms, 0769ms total)
T06CC 001:710 JLINK_WriteReg(PSP, 0x20001000)  returns 0x00 (0000ms, 0769ms total)
T06CC 001:710 JLINK_WriteReg(CFBP, 0x00000000)  returns 0x00 (0000ms, 0769ms total)
T06CC 001:710 JLINK_SetBPEx(Addr = 0x20000000, Type = 0xFFFFFFF2)  returns 0x0000000B (0000ms, 0769ms total)
T06CC 001:710 JLINK_Go() (0003ms, 0772ms total)
T06CC 001:713 JLINK_IsHalted()  returns FALSE (0001ms, 0773ms total)
T06CC 001:745 JLINK_IsHalted() -- CPU_ReadMem(2 bytes @ 0x20000000)  returns TRUE (0003ms, 0775ms total)
T06CC 001:748 JLINK_ReadReg(R15 (PC))  returns 0x20000000 (0000ms, 0772ms total)
T06CC 001:748 JLINK_ClrBPEx(BPHandle = 0x0000000B)  returns 0x00 (0000ms, 0772ms total)
T06CC 001:748 JLINK_ReadReg(R0)  returns 0x00000000 (0000ms, 0772ms total)
T06CC 001:749 JLINK_WriteMem(0x20000164, 0x0400 Bytes, ...) -- Data:  90 60 D0 6A 20 F4 70 00 0C 7C 64 1E E4 B2 23 43 ... -- CPU_WriteMem(1024 bytes @ 0x20000164)  returns 0x400 (0013ms, 0785ms total)
T06CC 001:762 JLINK_WriteReg(R0, 0x08001C00)  returns 0x00 (0000ms, 0785ms total)
T06CC 001:762 JLINK_WriteReg(R1, 0x00000400)  returns 0x00 (0000ms, 0785ms total)
T06CC 001:762 JLINK_WriteReg(R2, 0x20000164)  returns 0x00 (0000ms, 0785ms total)
T06CC 001:762 JLINK_WriteReg(R3, 0x00000000)  returns 0x00 (0000ms, 0785ms total)
T06CC 001:762 JLINK_WriteReg(R4, 0x00000000)  returns 0x00 (0000ms, 0785ms total)
T06CC 001:762 JLINK_WriteReg(R5, 0x00000000)  returns 0x00 (0000ms, 0785ms total)
T06CC 001:762 JLINK_WriteReg(R6, 0x00000000)  returns 0x00 (0000ms, 0785ms total)
T06CC 001:762 JLINK_WriteReg(R7, 0x00000000)  returns 0x00 (0000ms, 0785ms total)
T06CC 001:762 JLINK_WriteReg(R8, 0x00000000)  returns 0x00 (0000ms, 0785ms total)
T06CC 001:762 JLINK_WriteReg(R9, 0x20000160)  returns 0x00 (0000ms, 0785ms total)
T06CC 001:762 JLINK_WriteReg(R10, 0x00000000)  returns 0x00 (0000ms, 0785ms total)
T06CC 001:762 JLINK_WriteReg(R11, 0x00000000)  returns 0x00 (0000ms, 0785ms total)
T06CC 001:762 JLINK_WriteReg(R12, 0x00000000)  returns 0x00 (0000ms, 0785ms total)
T06CC 001:762 JLINK_WriteReg(R13 (SP), 0x20001000)  returns 0x00 (0000ms, 0785ms total)
T06CC 001:762 JLINK_WriteReg(R14, 0x20000001)  returns 0x00 (0000ms, 0785ms total)
T06CC 001:762 JLINK_WriteReg(R15 (PC), 0x200000F4)  returns 0x00 (0000ms, 0785ms total)
T06CC 001:762 JLINK_WriteReg(XPSR, 0x01000000)  returns 0x00 (0000ms, 0785ms total)
T06CC 001:762 JLINK_WriteReg(MSP, 0x20001000)  returns 0x00 (0000ms, 0785ms total)
T06CC 001:762 JLINK_WriteReg(PSP, 0x20001000)  returns 0x00 (0000ms, 0785ms total)
T06CC 001:762 JLINK_WriteReg(CFBP, 0x00000000)  returns 0x00 (0000ms, 0785ms total)
T06CC 001:762 JLINK_SetBPEx(Addr = 0x20000000, Type = 0xFFFFFFF2)  returns 0x0000000C (0000ms, 0785ms total)
T06CC 001:762 JLINK_Go() (0003ms, 0788ms total)
T06CC 001:765 JLINK_IsHalted()  returns FALSE (0001ms, 0789ms total)
T06CC 001:792 JLINK_IsHalted()  returns FALSE (0001ms, 0789ms total)
T06CC 001:798 JLINK_IsHalted() -- CPU_ReadMem(2 bytes @ 0x20000000)  returns TRUE (0004ms, 0792ms total)
T06CC 001:802 JLINK_ReadReg(R15 (PC))  returns 0x20000000 (0000ms, 0788ms total)
T06CC 001:802 JLINK_ClrBPEx(BPHandle = 0x0000000C)  returns 0x00 (0000ms, 0788ms total)
T06CC 001:802 JLINK_ReadReg(R0)  returns 0x00000000 (0000ms, 0788ms total)
T06CC 001:803 JLINK_WriteMem(0x20000164, 0x0400 Bytes, ...) -- Data:  87 49 14 31 88 42 08 D1 85 49 08 39 49 68 41 F0 ... -- CPU_WriteMem(1024 bytes @ 0x20000164)  returns 0x400 (0012ms, 0800ms total)
T06CC 001:815 JLINK_WriteReg(R0, 0x08002000)  returns 0x00 (0000ms, 0800ms total)
T06CC 001:815 JLINK_WriteReg(R1, 0x00000400)  returns 0x00 (0000ms, 0800ms total)
T06CC 001:815 JLINK_WriteReg(R2, 0x20000164)  returns 0x00 (0000ms, 0800ms total)
T06CC 001:815 JLINK_WriteReg(R3, 0x00000000)  returns 0x00 (0000ms, 0800ms total)
T06CC 001:815 JLINK_WriteReg(R4, 0x00000000)  returns 0x00 (0000ms, 0800ms total)
T06CC 001:815 JLINK_WriteReg(R5, 0x00000000)  returns 0x00 (0000ms, 0800ms total)
T06CC 001:815 JLINK_WriteReg(R6, 0x00000000)  returns 0x00 (0000ms, 0800ms total)
T06CC 001:815 JLINK_WriteReg(R7, 0x00000000)  returns 0x00 (0000ms, 0800ms total)
T06CC 001:815 JLINK_WriteReg(R8, 0x00000000)  returns 0x00 (0000ms, 0800ms total)
T06CC 001:815 JLINK_WriteReg(R9, 0x20000160)  returns 0x00 (0000ms, 0800ms total)
T06CC 001:815 JLINK_WriteReg(R10, 0x00000000)  returns 0x00 (0000ms, 0800ms total)
T06CC 001:815 JLINK_WriteReg(R11, 0x00000000)  returns 0x00 (0000ms, 0800ms total)
T06CC 001:815 JLINK_WriteReg(R12, 0x00000000)  returns 0x00 (0000ms, 0800ms total)
T06CC 001:815 JLINK_WriteReg(R13 (SP), 0x20001000)  returns 0x00 (0000ms, 0800ms total)
T06CC 001:815 JLINK_WriteReg(R14, 0x20000001)  returns 0x00 (0000ms, 0800ms total)
T06CC 001:816 JLINK_WriteReg(R15 (PC), 0x200000F4)  returns 0x00 (0000ms, 0801ms total)
T06CC 001:816 JLINK_WriteReg(XPSR, 0x01000000)  returns 0x00 (0000ms, 0801ms total)
T06CC 001:816 JLINK_WriteReg(MSP, 0x20001000)  returns 0x00 (0000ms, 0801ms total)
T06CC 001:816 JLINK_WriteReg(PSP, 0x20001000)  returns 0x00 (0000ms, 0801ms total)
T06CC 001:816 JLINK_WriteReg(CFBP, 0x00000000)  returns 0x00 (0000ms, 0801ms total)
T06CC 001:816 JLINK_SetBPEx(Addr = 0x20000000, Type = 0xFFFFFFF2)  returns 0x0000000D (0000ms, 0801ms total)
T06CC 001:816 JLINK_Go() (0001ms, 0802ms total)
T06CC 001:817 JLINK_IsHalted()  returns FALSE (0001ms, 0803ms total)
T06CC 001:826 JLINK_IsHalted()  returns FALSE (0000ms, 0802ms total)
T06CC 001:836 JLINK_IsHalted()  returns FALSE (0001ms, 0803ms total)
T06CC 001:838 JLINK_IsHalted()  returns FALSE (0001ms, 0803ms total)
T06CC 001:840 JLINK_IsHalted()  returns FALSE (0001ms, 0803ms total)
T06CC 001:847 JLINK_IsHalted()  returns FALSE (0001ms, 0803ms total)
T06CC 001:849 JLINK_IsHalted() -- CPU_ReadMem(2 bytes @ 0x20000000)  returns TRUE (0005ms, 0807ms total)
T06CC 001:854 JLINK_ReadReg(R15 (PC))  returns 0x20000000 (0000ms, 0802ms total)
T06CC 001:854 JLINK_ClrBPEx(BPHandle = 0x0000000D)  returns 0x00 (0000ms, 0802ms total)
T06CC 001:854 JLINK_ReadReg(R0)  returns 0x00000000 (0000ms, 0802ms total)
T06CC 001:854 JLINK_WriteMem(0x20000164, 0x0400 Bytes, ...) -- Data:  FF F7 F1 FF 00 B1 00 25 4F F4 30 20 FF F7 5D FF ... -- CPU_WriteMem(1024 bytes @ 0x20000164)  returns 0x400 (0013ms, 0815ms total)
T06CC 001:867 JLINK_WriteReg(R0, 0x08002400)  returns 0x00 (0000ms, 0815ms total)
T06CC 001:867 JLINK_WriteReg(R1, 0x00000400)  returns 0x00 (0000ms, 0815ms total)
T06CC 001:867 JLINK_WriteReg(R2, 0x20000164)  returns 0x00 (0000ms, 0815ms total)
T06CC 001:867 JLINK_WriteReg(R3, 0x00000000)  returns 0x00 (0000ms, 0815ms total)
T06CC 001:867 JLINK_WriteReg(R4, 0x00000000)  returns 0x00 (0000ms, 0815ms total)
T06CC 001:867 JLINK_WriteReg(R5, 0x00000000)  returns 0x00 (0000ms, 0815ms total)
T06CC 001:867 JLINK_WriteReg(R6, 0x00000000)  returns 0x00 (0000ms, 0815ms total)
T06CC 001:867 JLINK_WriteReg(R7, 0x00000000)  returns 0x00 (0000ms, 0815ms total)
T06CC 001:867 JLINK_WriteReg(R8, 0x00000000)  returns 0x00 (0000ms, 0815ms total)
T06CC 001:867 JLINK_WriteReg(R9, 0x20000160)  returns 0x00 (0000ms, 0815ms total)
T06CC 001:867 JLINK_WriteReg(R10, 0x00000000)  returns 0x00 (0000ms, 0815ms total)
T06CC 001:867 JLINK_WriteReg(R11, 0x00000000)  returns 0x00 (0000ms, 0815ms total)
T06CC 001:867 JLINK_WriteReg(R12, 0x00000000)  returns 0x00 (0000ms, 0815ms total)
T06CC 001:867 JLINK_WriteReg(R13 (SP), 0x20001000)  returns 0x00 (0000ms, 0815ms total)
T06CC 001:867 JLINK_WriteReg(R14, 0x20000001)  returns 0x00 (0000ms, 0815ms total)
T06CC 001:867 JLINK_WriteReg(R15 (PC), 0x200000F4)  returns 0x00 (0000ms, 0815ms total)
T06CC 001:867 JLINK_WriteReg(XPSR, 0x01000000)  returns 0x00 (0000ms, 0815ms total)
T06CC 001:867 JLINK_WriteReg(MSP, 0x20001000)  returns 0x00 (0000ms, 0815ms total)
T06CC 001:867 JLINK_WriteReg(PSP, 0x20001000)  returns 0x00 (0000ms, 0815ms total)
T06CC 001:867 JLINK_WriteReg(CFBP, 0x00000000)  returns 0x00 (0000ms, 0815ms total)
T06CC 001:867 JLINK_SetBPEx(Addr = 0x20000000, Type = 0xFFFFFFF2)  returns 0x0000000E (0000ms, 0815ms total)
T06CC 001:867 JLINK_Go() (0002ms, 0817ms total)
T06CC 001:869 JLINK_IsHalted()  returns FALSE (0001ms, 0818ms total)
T06CC 001:890 JLINK_IsHalted()  returns FALSE (0000ms, 0817ms total)
T06CC 001:910 JLINK_IsHalted() -- CPU_ReadMem(2 bytes @ 0x20000000)  returns TRUE (0004ms, 0821ms total)
T06CC 001:914 JLINK_ReadReg(R15 (PC))  returns 0x20000000 (0000ms, 0817ms total)
T06CC 001:914 JLINK_ClrBPEx(BPHandle = 0x0000000E)  returns 0x00 (0000ms, 0817ms total)
T06CC 001:914 JLINK_ReadReg(R0)  returns 0x00000000 (0000ms, 0817ms total)
T06CC 001:915 JLINK_WriteMem(0x20000164, 0x0400 Bytes, ...) -- Data:  C7 48 84 42 08 D1 01 21 08 20 00 F0 21 FB 00 21 ... -- CPU_WriteMem(1024 bytes @ 0x20000164)  returns 0x400 (0013ms, 0830ms total)
T06CC 001:928 JLINK_WriteReg(R0, 0x08002800)  returns 0x00 (0000ms, 0830ms total)
T06CC 001:928 JLINK_WriteReg(R1, 0x00000400)  returns 0x00 (0000ms, 0830ms total)
T06CC 001:928 JLINK_WriteReg(R2, 0x20000164)  returns 0x00 (0000ms, 0830ms total)
T06CC 001:928 JLINK_WriteReg(R3, 0x00000000)  returns 0x00 (0000ms, 0830ms total)
T06CC 001:928 JLINK_WriteReg(R4, 0x00000000)  returns 0x00 (0000ms, 0830ms total)
T06CC 001:928 JLINK_WriteReg(R5, 0x00000000)  returns 0x00 (0000ms, 0830ms total)
T06CC 001:928 JLINK_WriteReg(R6, 0x00000000)  returns 0x00 (0000ms, 0830ms total)
T06CC 001:928 JLINK_WriteReg(R7, 0x00000000)  returns 0x00 (0000ms, 0830ms total)
T06CC 001:928 JLINK_WriteReg(R8, 0x00000000)  returns 0x00 (0000ms, 0830ms total)
T06CC 001:928 JLINK_WriteReg(R9, 0x20000160)  returns 0x00 (0000ms, 0830ms total)
T06CC 001:928 JLINK_WriteReg(R10, 0x00000000)  returns 0x00 (0000ms, 0830ms total)
T06CC 001:928 JLINK_WriteReg(R11, 0x00000000)  returns 0x00 (0000ms, 0830ms total)
T06CC 001:928 JLINK_WriteReg(R12, 0x00000000)  returns 0x00 (0000ms, 0830ms total)
T06CC 001:928 JLINK_WriteReg(R13 (SP), 0x20001000)  returns 0x00 (0000ms, 0830ms total)
T06CC 001:928 JLINK_WriteReg(R14, 0x20000001)  returns 0x00 (0000ms, 0830ms total)
T06CC 001:928 JLINK_WriteReg(R15 (PC), 0x200000F4)  returns 0x00 (0000ms, 0830ms total)
T06CC 001:928 JLINK_WriteReg(XPSR, 0x01000000)  returns 0x00 (0000ms, 0830ms total)
T06CC 001:928 JLINK_WriteReg(MSP, 0x20001000)  returns 0x00 (0000ms, 0830ms total)
T06CC 001:928 JLINK_WriteReg(PSP, 0x20001000)  returns 0x00 (0000ms, 0830ms total)
T06CC 001:928 JLINK_WriteReg(CFBP, 0x00000000)  returns 0x00 (0000ms, 0830ms total)
T06CC 001:928 JLINK_SetBPEx(Addr = 0x20000000, Type = 0xFFFFFFF2)  returns 0x0000000F (0000ms, 0830ms total)
T06CC 001:928 JLINK_Go() (0003ms, 0833ms total)
T06CC 001:931 JLINK_IsHalted()  returns FALSE (0001ms, 0834ms total)
T06CC 001:952 JLINK_IsHalted()  returns FALSE (0001ms, 0834ms total)
T06CC 001:954 JLINK_IsHalted()  returns FALSE (0001ms, 0834ms total)
T06CC 001:956 JLINK_IsHalted()  returns FALSE (0001ms, 0834ms total)
T06CC 001:959 JLINK_IsHalted()  returns FALSE (0001ms, 0834ms total)
T06CC 001:962 JLINK_IsHalted() -- CPU_ReadMem(2 bytes @ 0x20000000)  returns TRUE (0004ms, 0837ms total)
T06CC 001:966 JLINK_ReadReg(R15 (PC))  returns 0x20000000 (0000ms, 0833ms total)
T06CC 001:966 JLINK_ClrBPEx(BPHandle = 0x0000000F)  returns 0x00 (0000ms, 0833ms total)
T06CC 001:966 JLINK_ReadReg(R0)  returns 0x00000000 (0000ms, 0833ms total)
T06CC 001:967 JLINK_WriteMem(0x20000164, 0x0400 Bytes, ...) -- Data:  00 20 00 90 00 24 00 25 00 BF 31 20 FF F7 DB FF ... -- CPU_WriteMem(1024 bytes @ 0x20000164)  returns 0x400 (0013ms, 0846ms total)
T06CC 001:980 JLINK_WriteReg(R0, 0x08002C00)  returns 0x00 (0000ms, 0846ms total)
T06CC 001:980 JLINK_WriteReg(R1, 0x00000400)  returns 0x00 (0000ms, 0846ms total)
T06CC 001:980 JLINK_WriteReg(R2, 0x20000164)  returns 0x00 (0000ms, 0846ms total)
T06CC 001:980 JLINK_WriteReg(R3, 0x00000000)  returns 0x00 (0000ms, 0846ms total)
T06CC 001:980 JLINK_WriteReg(R4, 0x00000000)  returns 0x00 (0000ms, 0846ms total)
T06CC 001:980 JLINK_WriteReg(R5, 0x00000000)  returns 0x00 (0000ms, 0846ms total)
T06CC 001:980 JLINK_WriteReg(R6, 0x00000000)  returns 0x00 (0000ms, 0846ms total)
T06CC 001:980 JLINK_WriteReg(R7, 0x00000000)  returns 0x00 (0000ms, 0846ms total)
T06CC 001:980 JLINK_WriteReg(R8, 0x00000000)  returns 0x00 (0000ms, 0846ms total)
T06CC 001:980 JLINK_WriteReg(R9, 0x20000160)  returns 0x00 (0000ms, 0846ms total)
T06CC 001:980 JLINK_WriteReg(R10, 0x00000000)  returns 0x00 (0000ms, 0846ms total)
T06CC 001:980 JLINK_WriteReg(R11, 0x00000000)  returns 0x00 (0000ms, 0846ms total)
T06CC 001:980 JLINK_WriteReg(R12, 0x00000000)  returns 0x00 (0000ms, 0846ms total)
T06CC 001:980 JLINK_WriteReg(R13 (SP), 0x20001000)  returns 0x00 (0000ms, 0846ms total)
T06CC 001:980 JLINK_WriteReg(R14, 0x20000001)  returns 0x00 (0000ms, 0846ms total)
T06CC 001:980 JLINK_WriteReg(R15 (PC), 0x200000F4)  returns 0x00 (0000ms, 0846ms total)
T06CC 001:980 JLINK_WriteReg(XPSR, 0x01000000)  returns 0x00 (0000ms, 0846ms total)
T06CC 001:980 JLINK_WriteReg(MSP, 0x20001000)  returns 0x00 (0000ms, 0846ms total)
T06CC 001:980 JLINK_WriteReg(PSP, 0x20001000)  returns 0x00 (0000ms, 0846ms total)
T06CC 001:980 JLINK_WriteReg(CFBP, 0x00000000)  returns 0x00 (0000ms, 0846ms total)
T06CC 001:980 JLINK_SetBPEx(Addr = 0x20000000, Type = 0xFFFFFFF2)  returns 0x00000010 (0000ms, 0846ms total)
T06CC 001:980 JLINK_Go() (0002ms, 0848ms total)
T06CC 001:982 JLINK_IsHalted()  returns FALSE (0001ms, 0849ms total)
T06CC 002:010 JLINK_IsHalted()  returns FALSE (0001ms, 0849ms total)
T06CC 002:016 JLINK_IsHalted() -- CPU_ReadMem(2 bytes @ 0x20000000)  returns TRUE (0004ms, 0852ms total)
T06CC 002:020 JLINK_ReadReg(R15 (PC))  returns 0x20000000 (0001ms, 0849ms total)
T06CC 002:021 JLINK_ClrBPEx(BPHandle = 0x00000010)  returns 0x00 (0000ms, 0849ms total)
T06CC 002:021 JLINK_ReadReg(R0)  returns 0x00000000 (0000ms, 0849ms total)
T06CC 002:021 JLINK_WriteMem(0x20000164, 0x0400 Bytes, ...) -- Data:  F0 F6 06 F0 01 08 A6 EB 08 00 C0 F3 4F 07 4F F6 ... -- CPU_WriteMem(1024 bytes @ 0x20000164)  returns 0x400 (0013ms, 0862ms total)
T06CC 002:034 JLINK_WriteReg(R0, 0x08003000)  returns 0x00 (0000ms, 0862ms total)
T06CC 002:034 JLINK_WriteReg(R1, 0x00000400)  returns 0x00 (0000ms, 0862ms total)
T06CC 002:034 JLINK_WriteReg(R2, 0x20000164)  returns 0x00 (0000ms, 0862ms total)
T06CC 002:034 JLINK_WriteReg(R3, 0x00000000)  returns 0x00 (0000ms, 0862ms total)
T06CC 002:034 JLINK_WriteReg(R4, 0x00000000)  returns 0x00 (0000ms, 0862ms total)
T06CC 002:034 JLINK_WriteReg(R5, 0x00000000)  returns 0x00 (0000ms, 0862ms total)
T06CC 002:034 JLINK_WriteReg(R6, 0x00000000)  returns 0x00 (0000ms, 0862ms total)
T06CC 002:034 JLINK_WriteReg(R7, 0x00000000)  returns 0x00 (0000ms, 0862ms total)
T06CC 002:034 JLINK_WriteReg(R8, 0x00000000)  returns 0x00 (0000ms, 0862ms total)
T06CC 002:034 JLINK_WriteReg(R9, 0x20000160)  returns 0x00 (0000ms, 0862ms total)
T06CC 002:034 JLINK_WriteReg(R10, 0x00000000)  returns 0x00 (0000ms, 0862ms total)
T06CC 002:034 JLINK_WriteReg(R11, 0x00000000)  returns 0x00 (0000ms, 0862ms total)
T06CC 002:034 JLINK_WriteReg(R12, 0x00000000)  returns 0x00 (0000ms, 0862ms total)
T06CC 002:034 JLINK_WriteReg(R13 (SP), 0x20001000)  returns 0x00 (0000ms, 0862ms total)
T06CC 002:034 JLINK_WriteReg(R14, 0x20000001)  returns 0x00 (0000ms, 0862ms total)
T06CC 002:034 JLINK_WriteReg(R15 (PC), 0x200000F4)  returns 0x00 (0000ms, 0862ms total)
T06CC 002:034 JLINK_WriteReg(XPSR, 0x01000000)  returns 0x00 (0000ms, 0862ms total)
T06CC 002:034 JLINK_WriteReg(MSP, 0x20001000)  returns 0x00 (0000ms, 0862ms total)
T06CC 002:034 JLINK_WriteReg(PSP, 0x20001000)  returns 0x00 (0000ms, 0862ms total)
T06CC 002:034 JLINK_WriteReg(CFBP, 0x00000000)  returns 0x00 (0000ms, 0862ms total)
T06CC 002:034 JLINK_SetBPEx(Addr = 0x20000000, Type = 0xFFFFFFF2)  returns 0x00000011 (0000ms, 0862ms total)
T06CC 002:034 JLINK_Go() (0002ms, 0864ms total)
T06CC 002:036 JLINK_IsHalted()  returns FALSE (0002ms, 0866ms total)
T06CC 002:068 JLINK_IsHalted() -- CPU_ReadMem(2 bytes @ 0x20000000)  returns TRUE (0004ms, 0868ms total)
T06CC 002:072 JLINK_ReadReg(R15 (PC))  returns 0x20000000 (0000ms, 0864ms total)
T06CC 002:072 JLINK_ClrBPEx(BPHandle = 0x00000011)  returns 0x00 (0000ms, 0864ms total)
T06CC 002:072 JLINK_ReadReg(R0)  returns 0x00000000 (0000ms, 0864ms total)
T06CC 002:072 JLINK_WriteMem(0x20000164, 0x0400 Bytes, ...) -- Data:  02 D0 8A 4B 98 42 01 D1 0B 7A 03 86 01 23 83 82 ... -- CPU_WriteMem(1024 bytes @ 0x20000164)  returns 0x400 (0013ms, 0877ms total)
T06CC 002:085 JLINK_WriteReg(R0, 0x08003400)  returns 0x00 (0000ms, 0877ms total)
